date Wed Mar 12 04:12:45.453 pm 2025
base hex  timestamps absolute
internal events logged
// version 11.0.0
Begin TriggerBlock Wed Mar 12 04:12:45.453 pm 2025
   0.000000 Start of measurement
   0.011031 1  CF00400x        Tx   d 8 4E 8F 8F B0 1D 27 00 90  Length = 544000 BitCount = 139 ID = 217056256x
   0.021087 1  CF00400x        Tx   d 8 4E 8F 8F B0 1D 27 00 90  Length = 543756 BitCount = 139 ID = 217056256x
   0.031003 1  CF00400x        Tx   d 8 4E 8F 8F B0 1D 27 00 90  Length = 544000 BitCount = 139 ID = 217056256x
   0.041026 1  CF00400x        Tx   d 8 4E 8F 8F B0 1D 27 00 90  Length = 543756 BitCount = 139 ID = 217056256x
   0.051042 1  CF00400x        Tx   d 8 4E 8F 8F B0 1D 27 00 90  Length = 544000 BitCount = 139 ID = 217056256x
   0.051618 1  18FF2100x       Tx   d 8 E3 00 FF 30 00 00 00 00  Length = 564000 BitCount = 144 ID = 419373312x
   0.052210 1  18FEDF00x       Tx   d 8 00 00 00 00 00 00 00 00  Length = 580000 BitCount = 148 ID = 419356416x
   0.052782 1  CF00300x        Tx   d 8 FF FF 1B FF FF FF AB FE  Length = 560000 BitCount = 143 ID = 217056000x
   0.061022 1  CF00400x        Tx   d 8 4E 8F 8F B0 1D 27 00 90  Length = 544000 BitCount = 139 ID = 217056256x
   0.071042 1  CF00400x        Tx   d 8 4E 8F 8F B0 1D 27 00 90  Length = 544000 BitCount = 139 ID = 217056256x
   0.080978 1  CF00400x        Tx   d 8 4E 8F 8F B0 1D 27 00 90  Length = 544016 BitCount = 139 ID = 217056256x
   0.090982 1  CF00400x        Tx   d 8 4E 8F 8F B0 1D 27 00 90  Length = 543772 BitCount = 139 ID = 217056256x
   0.101026 1  18FEDF00x       Tx   d 8 00 00 00 00 00 00 00 00  Length = 580016 BitCount = 148 ID = 419356416x
   0.101598 1  CF00300x        Tx   d 8 FF FF 1B FF FF FF AB FE  Length = 560016 BitCount = 143 ID = 217056000x
   0.102154 1  CF00400x        Tx   d 8 4E 8F 8F B0 1D 27 00 90  Length = 544016 BitCount = 139 ID = 217056256x
   0.102730 1  18FF2100x       Tx   d 8 E3 00 FF 30 00 00 00 00  Length = 564016 BitCount = 144 ID = 419373312x
   0.111014 1  CF00400x        Tx   d 8 4E 8F 8F B0 1D 27 00 90  Length = 544000 BitCount = 139 ID = 217056256x
   0.121026 1  CF00400x        Tx   d 8 4E 8F 8F B0 1D 27 00 90  Length = 544000 BitCount = 139 ID = 217056256x
   0.131029 1  CF00400x        Tx   d 8 4E 8F 8F B0 1D 27 00 90  Length = 544015 BitCount = 139 ID = 217056256x
   0.140957 1  CF00400x        Tx   d 8 4E 8F 8F B0 1D 27 00 90  Length = 543771 BitCount = 139 ID = 217056256x
   0.150965 1  18FF2100x       Tx   d 8 E3 00 FF 30 00 00 00 00  Length = 564015 BitCount = 144 ID = 419373312x
   0.151557 1  18FEDF00x       Tx   d 8 00 00 00 00 00 00 00 00  Length = 580015 BitCount = 148 ID = 419356416x
   0.152113 1  CF00400x        Tx   d 8 4E 8F 8F B0 1D 27 00 90  Length = 544015 BitCount = 139 ID = 217056256x
   0.152685 1  CF00300x        Tx   d 8 FF FF 1B FF FF FF AB FE  Length = 560015 BitCount = 143 ID = 217056000x
   0.160933 1  CF00400x        Tx   d 8 4E 8F 8F B0 1D 27 00 90  Length = 544000 BitCount = 139 ID = 217056256x
   0.170949 1  CF00400x        Tx   d 8 4E 8F 8F B0 1D 27 00 90  Length = 544000 BitCount = 139 ID = 217056256x
   0.180921 1  CF00400x        Tx   d 8 4E 8F 8F B0 1D 27 00 90  Length = 544000 BitCount = 139 ID = 217056256x
   0.190952 1  CF00400x        Tx   d 8 4E 8F 8F B0 1D 27 00 90  Length = 543756 BitCount = 139 ID = 217056256x
   0.200980 1  CF00300x        Tx   d 8 FF FF 1B FF FF FF AB FE  Length = 560000 BitCount = 143 ID = 217056000x
   0.201556 1  18FF2100x       Tx   d 8 E3 00 FF 30 00 00 00 00  Length = 564000 BitCount = 144 ID = 419373312x
   0.202112 1  CF00400x        Tx   d 8 4E 8F 8F B0 1D 27 00 90  Length = 544000 BitCount = 139 ID = 217056256x
   0.202704 1  18FEDF00x       Tx   d 8 00 00 00 00 00 00 00 00  Length = 580000 BitCount = 148 ID = 419356416x
   0.210908 1  CF00400x        Tx   d 8 4E 8F 8F B0 1D 27 00 90  Length = 544000 BitCount = 139 ID = 217056256x
   0.220948 1  CF00400x        Tx   d 8 4E 8F 8F B0 1D 27 00 90  Length = 544000 BitCount = 139 ID = 217056256x
   0.230944 1  CF00400x        Tx   d 8 4E 8F 8F B0 1D 27 00 90  Length = 544016 BitCount = 139 ID = 217056256x
   0.240944 1  CF00400x        Tx   d 8 4E 8F 8F B0 1D 27 00 90  Length = 543772 BitCount = 139 ID = 217056256x
   0.250968 1  18FEDF00x       Tx   d 8 00 00 00 00 00 00 00 00  Length = 580016 BitCount = 148 ID = 419356416x
   0.251540 1  CF00300x        Tx   d 8 FF FF 1B FF FF FF AB FE  Length = 560016 BitCount = 143 ID = 217056000x
   0.252096 1  CF00400x        Tx   d 8 4E 8F 8F B0 1D 27 00 90  Length = 544016 BitCount = 139 ID = 217056256x
   0.252672 1  18FF2100x       Tx   d 8 E3 00 FF 30 00 00 00 00  Length = 564016 BitCount = 144 ID = 419373312x
   0.260964 1  CF00400x        Tx   d 8 4E 8F 8F B0 1D 27 00 90  Length = 544016 BitCount = 139 ID = 217056256x
   0.270908 1  CF00400x        Tx   d 8 4E 8F 8F B0 1D 27 00 90  Length = 544016 BitCount = 139 ID = 217056256x
   0.280912 1  CF00400x        Tx   d 8 4E 8F 8F B0 1D 27 00 90  Length = 544000 BitCount = 139 ID = 217056256x
   0.291128 1  CF00400x        Tx   d 8 4E 8F 8F B0 1D 27 00 90  Length = 543756 BitCount = 139 ID = 217056256x
   0.301304 1  18FF2100x       Tx   d 8 E3 00 FF 30 00 00 00 00  Length = 564000 BitCount = 144 ID = 419373312x
   0.301896 1  18FEDF00x       Tx   d 8 00 00 00 00 00 00 00 00  Length = 580000 BitCount = 148 ID = 419356416x
   0.302452 1  CF00400x        Tx   d 8 4E 8F 8F B0 1D 27 00 90  Length = 544000 BitCount = 139 ID = 217056256x
   0.303024 1  CF00300x        Tx   d 8 FF FF 1B FF FF FF AB FE  Length = 560000 BitCount = 143 ID = 217056000x
   0.311120 1  CF00400x        Tx   d 8 4E 8F 8F B0 1D 27 00 90  Length = 544000 BitCount = 139 ID = 217056256x
   0.321124 1  CF00400x        Tx   d 8 4E 8F 8F B0 1D 27 00 90  Length = 544000 BitCount = 139 ID = 217056256x
   0.331116 1  CF00400x        Tx   d 8 4E 8F 8F B0 1D 27 00 90  Length = 544000 BitCount = 139 ID = 217056256x
   0.341096 1  CF00400x        Tx   d 8 4E 8F 8F B0 1D 27 00 90  Length = 543756 BitCount = 139 ID = 217056256x
   0.351112 1  CF00300x        Tx   d 8 FF FF 1B FF FF FF AB FE  Length = 560000 BitCount = 143 ID = 217056000x
   0.351688 1  18FF2100x       Tx   d 8 E3 00 FF 30 00 00 00 00  Length = 564000 BitCount = 144 ID = 419373312x
   0.352244 1  CF00400x        Tx   d 8 4E 8F 8F B0 1D 27 00 90  Length = 544000 BitCount = 139 ID = 217056256x
   0.352836 1  18FEDF00x       Tx   d 8 00 00 00 00 00 00 00 00  Length = 580000 BitCount = 148 ID = 419356416x
   0.361104 1  CF00400x        Tx   d 8 4E 8F 8F B0 1D 27 00 90  Length = 544000 BitCount = 139 ID = 217056256x
   0.371108 1  CF00400x        Tx   d 8 4E 8F 8F B0 1D 27 00 90  Length = 544000 BitCount = 139 ID = 217056256x
   0.381092 1  CF00400x        Tx   d 8 4E 8F 8F B0 1D 27 00 90  Length = 544016 BitCount = 139 ID = 217056256x
   0.391067 1  CF00400x        Tx   d 8 4E 8F 8F B0 1D 27 00 90  Length = 543772 BitCount = 139 ID = 217056256x
   0.401107 1  18FEDF00x       Tx   d 8 00 00 00 00 00 00 00 00  Length = 580000 BitCount = 148 ID = 419356416x
   0.401679 1  CF00300x        Tx   d 8 FF FF 1B FF FF FF AB FE  Length = 560000 BitCount = 143 ID = 217056000x
   0.402235 1  CF00400x        Tx   d 8 4E 8F 8F B0 1D 27 00 90  Length = 544000 BitCount = 139 ID = 217056256x
   0.402811 1  18FF2100x       Tx   d 8 E3 00 FF 30 00 00 00 00  Length = 564000 BitCount = 144 ID = 419373312x
   0.411043 1  CF00400x        Tx   d 8 4E 8F 8F B0 1D 27 00 90  Length = 544000 BitCount = 139 ID = 217056256x
   0.421075 1  CF00400x        Tx   d 8 4E 8F 8F B0 1D 27 00 90  Length = 543756 BitCount = 139 ID = 217056256x
   0.431043 1  CF00400x        Tx   d 8 4E 8F 8F B0 1D 27 00 90  Length = 544000 BitCount = 139 ID = 217056256x
   0.441047 1  CF00400x        Tx   d 8 4E 8F 8F B0 1D 27 00 90  Length = 543756 BitCount = 139 ID = 217056256x
   0.451087 1  18FF2100x       Tx   d 8 E3 00 FF 30 00 00 00 00  Length = 564000 BitCount = 144 ID = 419373312x
   0.451679 1  18FEDF00x       Tx   d 8 00 00 00 00 00 00 00 00  Length = 580000 BitCount = 148 ID = 419356416x
   0.452235 1  CF00400x        Tx   d 8 4E 8F 8F B0 1D 27 00 90  Length = 544000 BitCount = 139 ID = 217056256x
   0.452807 1  CF00300x        Tx   d 8 FF FF 1B FF FF FF AB FE  Length = 560000 BitCount = 143 ID = 217056000x
   0.461055 1  CF00400x        Tx   d 8 4E 8F 8F B0 1D 27 00 90  Length = 544016 BitCount = 139 ID = 217056256x
   0.471027 1  CF00400x        Tx   d 8 4E 8F 8F B0 1D 27 00 90  Length = 543772 BitCount = 139 ID = 217056256x
   0.481063 1  CF00400x        Tx   d 8 4E 8F 8F B0 1D 27 00 90  Length = 544000 BitCount = 139 ID = 217056256x
   0.491058 1  CF00400x        Tx   d 8 4E 8F 8F B0 1D 27 00 90  Length = 543756 BitCount = 139 ID = 217056256x
   0.501106 1  CF00300x        Tx   d 8 FF FF 1B FF FF FF AB FE  Length = 560000 BitCount = 143 ID = 217056000x
   0.501686 1  18FF2200x       Tx   d 8 00 00 00 00 00 FF 30 9F  Length = 568000 BitCount = 145 ID = 419373568x
   0.502262 1  18FF2100x       Tx   d 8 E3 00 FF 30 00 00 00 00  Length = 564000 BitCount = 144 ID = 419373312x
   0.502858 1  18FF2500x       Tx   d 8 0F FF FF 00 00 00 00 00  Length = 584000 BitCount = 149 ID = 419374336x
   0.503414 1  CF00400x        Tx   d 8 4E 8F 8F B0 1D 27 00 90  Length = 544000 BitCount = 139 ID = 217056256x
   0.503974 1  18FEF600x       Tx   d 8 FF 32 AA 32 FF 5F 2E FF  Length = 548000 BitCount = 140 ID = 419362304x
   0.504566 1  18FEDF00x       Tx   d 8 00 00 00 00 00 00 00 00  Length = 580000 BitCount = 148 ID = 419356416x
   0.511086 1  CF00400x        Tx   d 8 4E 8F 8F B0 1D 27 00 90  Length = 543756 BitCount = 139 ID = 217056256x
   0.520994 1  CF00400x        Tx   d 8 4E 8F 8F B0 1D 27 00 90  Length = 544000 BitCount = 139 ID = 217056256x
   0.531018 1  CF00400x        Tx   d 8 4E 8F 8F B0 1D 27 00 90  Length = 544016 BitCount = 139 ID = 217056256x
   0.541026 1  CF00400x        Tx   d 8 4E 8F 8F B0 1D 27 00 90  Length = 543772 BitCount = 139 ID = 217056256x
   0.551034 1  CF00300x        Tx   d 8 FF FF 1B FF FF FF AB FE  Length = 559756 BitCount = 143 ID = 217056000x
   0.551590 1  CF00400x        Tx   d 8 4E 8F 8F B0 1D 27 00 90  Length = 544000 BitCount = 139 ID = 217056256x
   0.552166 1  18FF2100x       Tx   d 8 E3 00 FF 30 00 00 00 00  Length = 564000 BitCount = 144 ID = 419373312x
   0.552758 1  18FEDF00x       Tx   d 8 00 00 00 00 00 00 00 00  Length = 580000 BitCount = 148 ID = 419356416x
   0.561038 1  CF00400x        Tx   d 8 4E 8F 8F B0 1D 27 00 90  Length = 544000 BitCount = 139 ID = 217056256x
   0.571021 1  CF00400x        Tx   d 8 4E 8F 8F B0 1D 27 00 90  Length = 544016 BitCount = 139 ID = 217056256x
   0.580997 1  CF00400x        Tx   d 8 4E 8F 8F B0 1D 27 00 90  Length = 544000 BitCount = 139 ID = 217056256x
   0.591005 1  CF00400x        Tx   d 8 4E 8F 8F B0 1D 27 00 90  Length = 543756 BitCount = 139 ID = 217056256x
   0.601053 1  18FEDF00x       Tx   d 8 00 00 00 00 00 00 00 00  Length = 580000 BitCount = 148 ID = 419356416x
   0.601609 1  CF00400x        Tx   d 8 4E 8F 8F B0 1D 27 00 90  Length = 544000 BitCount = 139 ID = 217056256x
   0.602181 1  CF00300x        Tx   d 8 FF FF 1B FF FF FF AB FE  Length = 560000 BitCount = 143 ID = 217056000x
   0.602757 1  18FF2100x       Tx   d 8 E3 00 FF 30 00 00 00 00  Length = 564000 BitCount = 144 ID = 419373312x
   0.611005 1  CF00400x        Tx   d 8 4E 8F 8F B0 1D 27 00 90  Length = 543756 BitCount = 139 ID = 217056256x
   0.621029 1  CF00400x        Tx   d 8 4E 8F 8F B0 1D 27 00 90  Length = 544000 BitCount = 139 ID = 217056256x
   0.631017 1  CF00400x        Tx   d 8 4E 8F 8F B0 1D 27 00 90  Length = 544000 BitCount = 139 ID = 217056256x
   0.640989 1  CF00400x        Tx   d 8 4E 8F 8F B0 1D 27 00 90  Length = 544000 BitCount = 139 ID = 217056256x
   0.651005 1  18FF2100x       Tx   d 8 E3 00 FF 30 00 00 00 00  Length = 564247 BitCount = 144 ID = 419373312x
   0.651561 1  CF00400x        Tx   d 8 4E 8F 8F B0 1D 27 00 90  Length = 544000 BitCount = 139 ID = 217056256x
   0.652153 1  18FEDF00x       Tx   d 8 00 00 00 00 00 00 00 00  Length = 580000 BitCount = 148 ID = 419356416x
   0.652725 1  CF00300x        Tx   d 8 FF FF 1B FF FF FF AB FE  Length = 560000 BitCount = 143 ID = 217056000x
   0.660981 1  CF00400x        Tx   d 8 4E 8F 8F B0 1D 27 00 90  Length = 543756 BitCount = 139 ID = 217056256x
   0.670997 1  CF00400x        Tx   d 8 4E 8F 8F B0 1D 27 00 90  Length = 544015 BitCount = 139 ID = 217056256x
   0.680972 1  CF00400x        Tx   d 8 4E 8F 8F B0 1D 27 00 90  Length = 544000 BitCount = 139 ID = 217056256x
   0.691137 1  CF00400x        Tx   d 8 4E 8F 8F B0 1D 27 00 90  Length = 544000 BitCount = 139 ID = 217056256x
   0.700969 1  CF00300x        Tx   d 8 FF FF 1B FF FF FF AB FE  Length = 560000 BitCount = 143 ID = 217056000x
   0.701525 1  CF00400x        Tx   d 8 4E 8F 8F B0 1D 27 00 90  Length = 544000 BitCount = 139 ID = 217056256x
   0.702101 1  18FF2100x       Tx   d 8 E3 00 FF 30 00 00 00 00  Length = 564000 BitCount = 144 ID = 419373312x
   0.702693 1  18FEDF00x       Tx   d 8 00 00 00 00 00 00 00 00  Length = 580000 BitCount = 148 ID = 419356416x
   0.710956 1  CF00400x        Tx   d 8 4E 8F 8F B0 1D 27 00 90  Length = 543756 BitCount = 139 ID = 217056256x
   0.720956 1  CF00400x        Tx   d 8 4E 8F 8F B0 1D 27 00 90  Length = 544000 BitCount = 139 ID = 217056256x
   0.730964 1  CF00400x        Tx   d 8 4E 8F 8F B0 1D 27 00 90  Length = 544015 BitCount = 139 ID = 217056256x
   0.740944 1  CF00400x        Tx   d 8 4E 8F 8F B0 1D 27 00 90  Length = 544000 BitCount = 139 ID = 217056256x
   0.750984 1  18FEDF00x       Tx   d 8 00 00 00 00 00 00 00 00  Length = 580000 BitCount = 148 ID = 419356416x
   0.751540 1  CF00400x        Tx   d 8 4E 8F 8F B0 1D 27 00 90  Length = 544000 BitCount = 139 ID = 217056256x
   0.752112 1  CF00300x        Tx   d 8 FF FF 1B FF FF FF AB FE  Length = 560000 BitCount = 143 ID = 217056000x
   0.752688 1  18FF2100x       Tx   d 8 E3 00 FF 30 00 00 00 00  Length = 564000 BitCount = 144 ID = 419373312x
   0.760960 1  CF00400x        Tx   d 8 4E 8F 8F B0 1D 27 00 90  Length = 543756 BitCount = 139 ID = 217056256x
   0.770936 1  CF00400x        Tx   d 8 4E 8F 8F B0 1D 27 00 90  Length = 544000 BitCount = 139 ID = 217056256x
   0.780932 1  CF00400x        Tx   d 8 4E 8F 8F B0 1D 27 00 90  Length = 544000 BitCount = 139 ID = 217056256x
   0.791128 1  CF00400x        Tx   d 8 4E 8F 8F B0 1D 27 00 90  Length = 544000 BitCount = 139 ID = 217056256x
   0.801144 1  18FF2100x       Tx   d 8 E3 00 FF 30 00 00 00 00  Length = 564000 BitCount = 144 ID = 419373312x
   0.801700 1  CF00400x        Tx   d 8 4E 8F 8F B0 1D 27 00 90  Length = 544000 BitCount = 139 ID = 217056256x
   0.802292 1  18FEDF00x       Tx   d 8 00 00 00 00 00 00 00 00  Length = 580000 BitCount = 148 ID = 419356416x
   0.802864 1  CF00300x        Tx   d 8 FF FF 1B FF FF FF AB FE  Length = 560000 BitCount = 143 ID = 217056000x
   0.811128 1  CF00400x        Tx   d 8 4E 8F 8F B0 1D 27 00 90  Length = 543756 BitCount = 139 ID = 217056256x
   0.821128 1  CF00400x        Tx   d 8 4E 8F 8F B0 1D 27 00 90  Length = 544000 BitCount = 139 ID = 217056256x
   0.831084 1  CF00400x        Tx   d 8 4E 8F 8F B0 1D 27 00 90  Length = 544015 BitCount = 139 ID = 217056256x
   0.841067 1  CF00400x        Tx   d 8 4E 8F 8F B0 1D 27 00 90  Length = 544000 BitCount = 139 ID = 217056256x
   0.851123 1  CF00300x        Tx   d 8 FF FF 1B FF FF FF AB FE  Length = 559756 BitCount = 143 ID = 217056000x
   0.851679 1  CF00400x        Tx   d 8 4E 8F 8F B0 1D 27 00 90  Length = 544000 BitCount = 139 ID = 217056256x
   0.852255 1  18FF2100x       Tx   d 8 E3 00 FF 30 00 00 00 00  Length = 564000 BitCount = 144 ID = 419373312x
   0.852847 1  18FEDF00x       Tx   d 8 00 00 00 00 00 00 00 00  Length = 580000 BitCount = 148 ID = 419356416x
   0.861115 1  CF00400x        Tx   d 8 4E 8F 8F B0 1D 27 00 90  Length = 544000 BitCount = 139 ID = 217056256x
   0.871079 1  CF00400x        Tx   d 8 4E 8F 8F B0 1D 27 00 90  Length = 543756 BitCount = 139 ID = 217056256x
   0.881070 1  CF00400x        Tx   d 8 4E 8F 8F B0 1D 27 00 90  Length = 543756 BitCount = 139 ID = 217056256x
   0.891074 1  CF00400x        Tx   d 8 4E 8F 8F B0 1D 27 00 90  Length = 544000 BitCount = 139 ID = 217056256x
   0.901118 1  18FEDF00x       Tx   d 8 00 00 00 00 00 00 00 00  Length = 580000 BitCount = 148 ID = 419356416x
   0.901674 1  CF00400x        Tx   d 8 4E 8F 8F B0 1D 27 00 90  Length = 544000 BitCount = 139 ID = 217056256x
   0.902246 1  CF00300x        Tx   d 8 FF FF 1B FF FF FF AB FE  Length = 560000 BitCount = 143 ID = 217056000x
   0.902822 1  18FF2100x       Tx   d 8 E3 00 FF 30 00 00 00 00  Length = 564000 BitCount = 144 ID = 419373312x
   0.911078 1  CF00400x        Tx   d 8 4E 8F 8F B0 1D 27 00 90  Length = 544000 BitCount = 139 ID = 217056256x
   0.921082 1  CF00400x        Tx   d 8 4E 8F 8F B0 1D 27 00 90  Length = 544000 BitCount = 139 ID = 217056256x
   0.931074 1  CF00400x        Tx   d 8 4E 8F 8F B0 1D 27 00 90  Length = 544000 BitCount = 139 ID = 217056256x
   0.941078 1  CF00400x        Tx   d 8 4E 8F 8F B0 1D 27 00 90  Length = 544000 BitCount = 139 ID = 217056256x
   0.951074 1  18FF2100x       Tx   d 8 E3 00 FF 30 00 00 00 00  Length = 563756 BitCount = 144 ID = 419373312x
   0.951630 1  CF00400x        Tx   d 8 4E 8F 8F B0 1D 27 00 90  Length = 544000 BitCount = 139 ID = 217056256x
   0.952222 1  18FEDF00x       Tx   d 8 00 00 00 00 00 00 00 00  Length = 580000 BitCount = 148 ID = 419356416x
   0.952794 1  CF00300x        Tx   d 8 FF FF 1B FF FF FF AB FE  Length = 560000 BitCount = 143 ID = 217056000x
   0.961054 1  CF00400x        Tx   d 8 4E 8F 8F B0 1D 27 00 90  Length = 544000 BitCount = 139 ID = 217056256x
   0.971054 1  CF00400x        Tx   d 8 4E 8F 8F B0 1D 27 00 90  Length = 544000 BitCount = 139 ID = 217056256x
   0.981046 1  CF00400x        Tx   d 8 4E 8F 8F B0 1D 27 00 90  Length = 544016 BitCount = 139 ID = 217056256x
   0.991037 1  CF00400x        Tx   d 8 4E 8F 8F B0 1D 27 00 90  Length = 543756 BitCount = 139 ID = 217056256x
   1.001065 1  CF00300x        Tx   d 8 FF FF 1B FF FF FF AB FE  Length = 560000 BitCount = 143 ID = 217056000x
   1.001625 1  18FEF600x       Tx   d 8 FF 32 AA 32 FF 5F 2E FF  Length = 548000 BitCount = 140 ID = 419362304x
   1.002221 1  18FF2500x       Tx   d 8 0F FF FF 00 00 00 00 00  Length = 584000 BitCount = 149 ID = 419374336x
   1.002801 1  18FF2200x       Tx   d 8 00 00 00 00 00 FF 30 9F  Length = 568000 BitCount = 145 ID = 419373568x
   1.003393 1  18FF2400x       Tx   d 8 00 00 00 00 00 00 00 00  Length = 580000 BitCount = 148 ID = 419374080x
   1.003949 1  CF00400x        Tx   d 8 4E 8F 8F B0 1D 27 00 90  Length = 544000 BitCount = 139 ID = 217056256x
   1.004525 1  18FF2100x       Tx   d 8 E3 00 FF 30 00 00 00 00  Length = 564000 BitCount = 144 ID = 419373312x
   1.005117 1  18FEF700x       Tx   d 8 00 00 00 00 00 00 00 00  Length = 579756 BitCount = 148 ID = 419362560x
   1.005701 1  18FEEE00x       Tx   d 8 7D 67 FF FF FF FF FF FF  Length = 572000 BitCount = 146 ID = 419360256x
   1.006293 1  18FEDF00x       Tx   d 8 00 00 00 00 00 00 00 00  Length = 580000 BitCount = 148 ID = 419356416x
   1.009294 1  Statistic: D 0 R 0 XD 324 XR 0 E 0 O 0 B 18.32%
   1.011065 1  CF00400x        Tx   d 8 4E 8F 8F B0 1D 27 00 90  Length = 544000 BitCount = 139 ID = 217056256x
   1.021013 1  CF00400x        Tx   d 8 4E 8F 8F B0 1D 27 00 90  Length = 544000 BitCount = 139 ID = 217056256x
   1.031012 1  CF00400x        Tx   d 8 4E 8F 8F B0 1D 27 00 90  Length = 543756 BitCount = 139 ID = 217056256x
   1.041009 1  CF00400x        Tx   d 8 4E 8F 8F B0 1D 27 00 90  Length = 544247 BitCount = 139 ID = 217056256x
   1.051037 1  18FEDF00x       Tx   d 8 00 00 00 00 00 00 00 00  Length = 580000 BitCount = 148 ID = 419356416x
   1.051609 1  CF00300x        Tx   d 8 FF FF 1B FF FF FF AB FE  Length = 560000 BitCount = 143 ID = 217056000x
   1.052165 1  CF00400x        Tx   d 8 4E 8F 8F B0 1D 27 00 90  Length = 544000 BitCount = 139 ID = 217056256x
   1.052741 1  18FF2100x       Tx   d 8 E3 00 FF 30 00 00 00 00  Length = 564000 BitCount = 144 ID = 419373312x
   1.060989 1  CF00400x        Tx   d 8 4E 8F 8F B0 1D 27 00 90  Length = 544000 BitCount = 139 ID = 217056256x
   1.071013 1  CF00400x        Tx   d 8 4E 8F 8F B0 1D 27 00 90  Length = 544000 BitCount = 139 ID = 217056256x
   1.080949 1  CF00400x        Tx   d 8 4E 8F 8F B0 1D 27 00 90  Length = 544000 BitCount = 139 ID = 217056256x
   1.090996 1  CF00400x        Tx   d 8 4E 8F 8F B0 1D 27 00 90  Length = 544000 BitCount = 139 ID = 217056256x
   1.101024 1  18FF2100x       Tx   d 8 E3 00 FF 30 00 00 00 00  Length = 564000 BitCount = 144 ID = 419373312x
   1.101616 1  18FEDF00x       Tx   d 8 00 00 00 00 00 00 00 00  Length = 580000 BitCount = 148 ID = 419356416x
   1.102172 1  CF00400x        Tx   d 8 4E 8F 8F B0 1D 27 00 90  Length = 544000 BitCount = 139 ID = 217056256x
   1.102744 1  CF00300x        Tx   d 8 FF FF 1B FF FF FF AB FE  Length = 560000 BitCount = 143 ID = 217056000x
   1.110988 1  CF00400x        Tx   d 8 4E 8F 8F B0 1D 27 00 90  Length = 544000 BitCount = 139 ID = 217056256x
   1.121000 1  CF00400x        Tx   d 8 4E 8F 8F B0 1D 27 00 90  Length = 544000 BitCount = 139 ID = 217056256x
   1.131128 1  CF00400x        Tx   d 8 4E 8F 8F B0 1D 27 00 90  Length = 544000 BitCount = 139 ID = 217056256x
   1.140968 1  CF00400x        Tx   d 8 4E 8F 8F B0 1D 27 00 90  Length = 544000 BitCount = 139 ID = 217056256x
   1.151012 1  CF00300x        Tx   d 8 FF FF 1B FF FF FF AB FE  Length = 559756 BitCount = 143 ID = 217056000x
   1.151588 1  18FF2100x       Tx   d 8 E3 00 FF 30 00 00 00 00  Length = 564000 BitCount = 144 ID = 419373312x
   1.152144 1  CF00400x        Tx   d 8 4E 8F 8F B0 1D 27 00 90  Length = 544000 BitCount = 139 ID = 217056256x
   1.152736 1  18FEDF00x       Tx   d 8 00 00 00 00 00 00 00 00  Length = 580000 BitCount = 148 ID = 419356416x
   1.160980 1  CF00400x        Tx   d 8 4E 8F 8F B0 1D 27 00 90  Length = 544000 BitCount = 139 ID = 217056256x
   1.170984 1  CF00400x        Tx   d 8 4E 8F 8F B0 1D 27 00 90  Length = 544000 BitCount = 139 ID = 217056256x
   1.180964 1  CF00400x        Tx   d 8 4E 8F 8F B0 1D 27 00 90  Length = 544000 BitCount = 139 ID = 217056256x
   1.190980 1  CF00400x        Tx   d 8 4E 8F 8F B0 1D 27 00 90  Length = 544000 BitCount = 139 ID = 217056256x
   1.200992 1  18FEDF00x       Tx   d 8 00 00 00 00 00 00 00 00  Length = 579756 BitCount = 148 ID = 419356416x
   1.201564 1  CF00300x        Tx   d 8 FF FF 1B FF FF FF AB FE  Length = 560000 BitCount = 143 ID = 217056000x
   1.202120 1  CF00400x        Tx   d 8 4E 8F 8F B0 1D 27 00 90  Length = 544000 BitCount = 139 ID = 217056256x
   1.202696 1  18FF2100x       Tx   d 8 E3 00 FF 30 00 00 00 00  Length = 564000 BitCount = 144 ID = 419373312x
   1.210952 1  CF00400x        Tx   d 8 4E 8F 8F B0 1D 27 00 90  Length = 544000 BitCount = 139 ID = 217056256x
   1.220952 1  CF00400x        Tx   d 8 4E 8F 8F B0 1D 27 00 90  Length = 544000 BitCount = 139 ID = 217056256x
   1.230956 1  CF00400x        Tx   d 8 4E 8F 8F B0 1D 27 00 90  Length = 544000 BitCount = 139 ID = 217056256x
   1.240947 1  CF00400x        Tx   d 8 4E 8F 8F B0 1D 27 00 90  Length = 543756 BitCount = 139 ID = 217056256x
   1.250971 1  18FF2100x       Tx   d 8 E3 00 FF 30 00 00 00 00  Length = 564000 BitCount = 144 ID = 419373312x
   1.251563 1  18FEDF00x       Tx   d 8 00 00 00 00 00 00 00 00  Length = 580000 BitCount = 148 ID = 419356416x
   1.252119 1  CF00400x        Tx   d 8 4E 8F 8F B0 1D 27 00 90  Length = 544000 BitCount = 139 ID = 217056256x
   1.252691 1  CF00300x        Tx   d 8 FF FF 1B FF FF FF AB FE  Length = 560000 BitCount = 143 ID = 217056000x
   1.260923 1  CF00400x        Tx   d 8 4E 8F 8F B0 1D 27 00 90  Length = 543756 BitCount = 139 ID = 217056256x
   1.270903 1  CF00400x        Tx   d 8 4E 8F 8F B0 1D 27 00 90  Length = 544000 BitCount = 139 ID = 217056256x
   1.280911 1  CF00400x        Tx   d 8 4E 8F 8F B0 1D 27 00 90  Length = 544000 BitCount = 139 ID = 217056256x
   1.291107 1  CF00400x        Tx   d 8 4E 8F 8F B0 1D 27 00 90  Length = 543756 BitCount = 139 ID = 217056256x
   1.301127 1  CF00300x        Tx   d 8 FF FF 1B FF FF FF AB FE  Length = 560000 BitCount = 143 ID = 217056000x
   1.301703 1  18FF2100x       Tx   d 8 E3 00 FF 30 00 00 00 00  Length = 564000 BitCount = 144 ID = 419373312x
   1.302259 1  CF00400x        Tx   d 8 4E 8F 8F B0 1D 27 00 90  Length = 544000 BitCount = 139 ID = 217056256x
   1.302851 1  18FEDF00x       Tx   d 8 00 00 00 00 00 00 00 00  Length = 580000 BitCount = 148 ID = 419356416x
   1.311087 1  CF00400x        Tx   d 8 4E 8F 8F B0 1D 27 00 90  Length = 543756 BitCount = 139 ID = 217056256x
   1.321083 1  CF00400x        Tx   d 8 4E 8F 8F B0 1D 27 00 90  Length = 544000 BitCount = 139 ID = 217056256x
   1.331078 1  CF00400x        Tx   d 8 4E 8F 8F B0 1D 27 00 90  Length = 544000 BitCount = 139 ID = 217056256x
   1.341082 1  CF00400x        Tx   d 8 4E 8F 8F B0 1D 27 00 90  Length = 543756 BitCount = 139 ID = 217056256x
   1.351126 1  18FEDF00x       Tx   d 8 00 00 00 00 00 00 00 00  Length = 580000 BitCount = 148 ID = 419356416x
   1.351698 1  CF00300x        Tx   d 8 FF FF 1B FF FF FF AB FE  Length = 560000 BitCount = 143 ID = 217056000x
   1.352254 1  CF00400x        Tx   d 8 4E 8F 8F B0 1D 27 00 90  Length = 544000 BitCount = 139 ID = 217056256x
   1.352830 1  18FF2100x       Tx   d 8 E3 00 FF 30 00 00 00 00  Length = 564000 BitCount = 144 ID = 419373312x
   1.361118 1  CF00400x        Tx   d 8 4E 8F 8F B0 1D 27 00 90  Length = 543756 BitCount = 139 ID = 217056256x
   1.371030 1  CF00400x        Tx   d 8 4E 8F 8F B0 1D 27 00 90  Length = 544000 BitCount = 139 ID = 217056256x
   1.381082 1  CF00400x        Tx   d 8 4E 8F 8F B0 1D 27 00 90  Length = 544000 BitCount = 139 ID = 217056256x
   1.391073 1  CF00400x        Tx   d 8 4E 8F 8F B0 1D 27 00 90  Length = 543756 BitCount = 139 ID = 217056256x
   1.401109 1  18FF2100x       Tx   d 8 E3 00 FF 30 00 00 00 00  Length = 564000 BitCount = 144 ID = 419373312x
   1.401701 1  18FEDF00x       Tx   d 8 00 00 00 00 00 00 00 00  Length = 580000 BitCount = 148 ID = 419356416x
   1.402257 1  CF00400x        Tx   d 8 4E 8F 8F B0 1D 27 00 90  Length = 544000 BitCount = 139 ID = 217056256x
   1.402829 1  CF00300x        Tx   d 8 FF FF 1B FF FF FF AB FE  Length = 560000 BitCount = 143 ID = 217056000x
   1.411073 1  CF00400x        Tx   d 8 4E 8F 8F B0 1D 27 00 90  Length = 544000 BitCount = 139 ID = 217056256x
   1.421069 1  CF00400x        Tx   d 8 4E 8F 8F B0 1D 27 00 90  Length = 544000 BitCount = 139 ID = 217056256x
   1.431073 1  CF00400x        Tx   d 8 4E 8F 8F B0 1D 27 00 90  Length = 544000 BitCount = 139 ID = 217056256x
   1.441069 1  CF00400x        Tx   d 8 4E 8F 8F B0 1D 27 00 90  Length = 543756 BitCount = 139 ID = 217056256x
   1.451069 1  CF00300x        Tx   d 8 FF FF 1B FF FF FF AB FE  Length = 560000 BitCount = 143 ID = 217056000x
   1.451645 1  18FF2100x       Tx   d 8 E3 00 FF 30 00 00 00 00  Length = 564000 BitCount = 144 ID = 419373312x
   1.452201 1  CF00400x        Tx   d 8 4E 8F 8F B0 1D 27 00 90  Length = 544000 BitCount = 139 ID = 217056256x
   1.452793 1  18FEDF00x       Tx   d 8 00 00 00 00 00 00 00 00  Length = 580000 BitCount = 148 ID = 419356416x
   1.461045 1  CF00400x        Tx   d 8 4E 8F 8F B0 1D 27 00 90  Length = 544000 BitCount = 139 ID = 217056256x
   1.471045 1  CF00400x        Tx   d 8 4E 8F 8F B0 1D 27 00 90  Length = 543756 BitCount = 139 ID = 217056256x
   1.481049 1  CF00400x        Tx   d 8 4E 8F 8F B0 1D 27 00 90  Length = 544000 BitCount = 139 ID = 217056256x
   1.491057 1  CF00400x        Tx   d 8 4E 8F 8F B0 1D 27 00 90  Length = 543756 BitCount = 139 ID = 217056256x
   1.501085 1  18FEDF00x       Tx   d 8 00 00 00 00 00 00 00 00  Length = 580000 BitCount = 148 ID = 419356416x
   1.501657 1  CF00300x        Tx   d 8 FF FF 1B FF FF FF AB FE  Length = 560000 BitCount = 143 ID = 217056000x
   1.502252 1  18FF2500x       Tx   d 8 0F FF FF 00 00 00 00 00  Length = 583756 BitCount = 149 ID = 419374336x
   1.502812 1  18FEF600x       Tx   d 8 FF 32 AA 32 FF 5F 2E FF  Length = 548000 BitCount = 140 ID = 419362304x
   1.503368 1  CF00400x        Tx   d 8 4E 8F 8F B0 1D 27 00 90  Length = 544000 BitCount = 139 ID = 217056256x
   1.503948 1  18FF2200x       Tx   d 8 00 00 00 00 00 FF 30 9F  Length = 568000 BitCount = 145 ID = 419373568x
   1.504524 1  18FF2100x       Tx   d 8 E3 00 FF 30 00 00 00 00  Length = 564000 BitCount = 144 ID = 419373312x
   1.511064 1  CF00400x        Tx   d 8 4E 8F 8F B0 1D 27 00 90  Length = 544000 BitCount = 139 ID = 217056256x
   1.521036 1  CF00400x        Tx   d 8 4E 8F 8F B0 1D 27 00 90  Length = 543756 BitCount = 139 ID = 217056256x
   1.531020 1  CF00400x        Tx   d 8 4E 8F 8F B0 1D 27 00 90  Length = 544000 BitCount = 139 ID = 217056256x
   1.541032 1  CF00400x        Tx   d 8 4E 8F 8F B0 1D 27 00 90  Length = 543756 BitCount = 139 ID = 217056256x
   1.551052 1  CF00300x        Tx   d 8 FF FF 1B FF FF FF AB FE  Length = 560000 BitCount = 143 ID = 217056000x
   1.551644 1  18FEDF00x       Tx   d 8 00 00 00 00 00 00 00 00  Length = 580000 BitCount = 148 ID = 419356416x
   1.552200 1  CF00400x        Tx   d 8 4E 8F 8F B0 1D 27 00 90  Length = 544000 BitCount = 139 ID = 217056256x
   1.552776 1  18FF2100x       Tx   d 8 E3 00 FF 30 00 00 00 00  Length = 564000 BitCount = 144 ID = 419373312x
   1.561004 1  CF00400x        Tx   d 8 4E 8F 8F B0 1D 27 00 90  Length = 543756 BitCount = 139 ID = 217056256x
   1.571100 1  CF00400x        Tx   d 8 4E 8F 8F B0 1D 27 00 90  Length = 544000 BitCount = 139 ID = 217056256x
   1.580983 1  CF00400x        Tx   d 8 4E 8F 8F B0 1D 27 00 90  Length = 544016 BitCount = 139 ID = 217056256x
   1.590983 1  CF00400x        Tx   d 8 4E 8F 8F B0 1D 27 00 90  Length = 543772 BitCount = 139 ID = 217056256x
   1.601003 1  18FF2100x       Tx   d 8 E3 00 FF 30 00 00 00 00  Length = 563771 BitCount = 144 ID = 419373312x
   1.601575 1  CF00300x        Tx   d 8 FF FF 1B FF FF FF AB FE  Length = 560015 BitCount = 143 ID = 217056000x
   1.602131 1  CF00400x        Tx   d 8 4E 8F 8F B0 1D 27 00 90  Length = 544015 BitCount = 139 ID = 217056256x
   1.602723 1  18FEDF00x       Tx   d 8 00 00 00 00 00 00 00 00  Length = 580015 BitCount = 148 ID = 419356416x
   1.610983 1  CF00400x        Tx   d 8 4E 8F 8F B0 1D 27 00 90  Length = 544015 BitCount = 139 ID = 217056256x
   1.620974 1  CF00400x        Tx   d 8 4E 8F 8F B0 1D 27 00 90  Length = 543756 BitCount = 139 ID = 217056256x
   1.630970 1  CF00400x        Tx   d 8 4E 8F 8F B0 1D 27 00 90  Length = 544000 BitCount = 139 ID = 217056256x
   1.640970 1  CF00400x        Tx   d 8 4E 8F 8F B0 1D 27 00 90  Length = 544015 BitCount = 139 ID = 217056256x
   1.651006 1  18FEDF00x       Tx   d 8 00 00 00 00 00 00 00 00  Length = 580015 BitCount = 148 ID = 419356416x
   1.651582 1  18FF2100x       Tx   d 8 E3 00 FF 30 00 00 00 00  Length = 564015 BitCount = 144 ID = 419373312x
   1.652138 1  CF00400x        Tx   d 8 4E 8F 8F B0 1D 27 00 90  Length = 544015 BitCount = 139 ID = 217056256x
   1.652710 1  CF00300x        Tx   d 8 FF FF 1B FF FF FF AB FE  Length = 560015 BitCount = 143 ID = 217056000x
   1.660946 1  CF00400x        Tx   d 8 4E 8F 8F B0 1D 27 00 90  Length = 544015 BitCount = 139 ID = 217056256x
   1.670970 1  CF00400x        Tx   d 8 4E 8F 8F B0 1D 27 00 90  Length = 543756 BitCount = 139 ID = 217056256x
   1.680922 1  CF00400x        Tx   d 8 4E 8F 8F B0 1D 27 00 90  Length = 543756 BitCount = 139 ID = 217056256x
   1.690938 1  CF00400x        Tx   d 8 4E 8F 8F B0 1D 27 00 90  Length = 544000 BitCount = 139 ID = 217056256x
   1.700922 1  CF00300x        Tx   d 8 FF FF 1B FF FF FF AB FE  Length = 560000 BitCount = 143 ID = 217056000x
   1.701514 1  18FEDF00x       Tx   d 8 00 00 00 00 00 00 00 00  Length = 580000 BitCount = 148 ID = 419356416x
   1.702070 1  CF00400x        Tx   d 8 4E 8F 8F B0 1D 27 00 90  Length = 544000 BitCount = 139 ID = 217056256x
   1.702646 1  18FF2100x       Tx   d 8 E3 00 FF 30 00 00 00 00  Length = 564000 BitCount = 144 ID = 419373312x
   1.710930 1  CF00400x        Tx   d 8 4E 8F 8F B0 1D 27 00 90  Length = 544000 BitCount = 139 ID = 217056256x
   1.720898 1  CF00400x        Tx   d 8 4E 8F 8F B0 1D 27 00 90  Length = 544000 BitCount = 139 ID = 217056256x
   1.730937 1  CF00400x        Tx   d 8 4E 8F 8F B0 1D 27 00 90  Length = 544000 BitCount = 139 ID = 217056256x
   1.740909 1  CF00400x        Tx   d 8 4E 8F 8F B0 1D 27 00 90  Length = 543756 BitCount = 139 ID = 217056256x
   1.750921 1  18FF2100x       Tx   d 8 E3 00 FF 30 00 00 00 00  Length = 564000 BitCount = 144 ID = 419373312x
   1.751493 1  CF00300x        Tx   d 8 FF FF 1B FF FF FF AB FE  Length = 560000 BitCount = 143 ID = 217056000x
   1.752049 1  CF00400x        Tx   d 8 4E 8F 8F B0 1D 27 00 90  Length = 544000 BitCount = 139 ID = 217056256x
   1.752641 1  18FEDF00x       Tx   d 8 00 00 00 00 00 00 00 00  Length = 580000 BitCount = 148 ID = 419356416x
   1.760857 1  CF00400x        Tx   d 8 4E 8F 8F B0 1D 27 00 90  Length = 543756 BitCount = 139 ID = 217056256x
   1.770873 1  CF00400x        Tx   d 8 4E 8F 8F B0 1D 27 00 90  Length = 543756 BitCount = 139 ID = 217056256x
   1.780877 1  CF00400x        Tx   d 8 4E 8F 8F B0 1D 27 00 90  Length = 544000 BitCount = 139 ID = 217056256x
   1.791096 1  CF00400x        Tx   d 8 4E 8F 8F B0 1D 27 00 90  Length = 543756 BitCount = 139 ID = 217056256x
   1.801124 1  18FEDF00x       Tx   d 8 00 00 00 00 00 00 00 00  Length = 580000 BitCount = 148 ID = 419356416x
   1.801700 1  18FF2100x       Tx   d 8 E3 00 FF 30 00 00 00 00  Length = 564000 BitCount = 144 ID = 419373312x
   1.802256 1  CF00400x        Tx   d 8 4E 8F 8F B0 1D 27 00 90  Length = 544000 BitCount = 139 ID = 217056256x
   1.802828 1  CF00300x        Tx   d 8 FF FF 1B FF FF FF AB FE  Length = 560000 BitCount = 143 ID = 217056000x
   1.811064 1  CF00400x        Tx   d 8 4E 8F 8F B0 1D 27 00 90  Length = 543756 BitCount = 139 ID = 217056256x
   1.821032 1  CF00400x        Tx   d 8 4E 8F 8F B0 1D 27 00 90  Length = 544000 BitCount = 139 ID = 217056256x
   1.831052 1  CF00400x        Tx   d 8 4E 8F 8F B0 1D 27 00 90  Length = 543756 BitCount = 139 ID = 217056256x
   1.841072 1  CF00400x        Tx   d 8 4E 8F 8F B0 1D 27 00 90  Length = 544000 BitCount = 139 ID = 217056256x
   1.851068 1  CF00300x        Tx   d 8 FF FF 1B FF FF FF AB FE  Length = 560000 BitCount = 143 ID = 217056000x
   1.851660 1  18FEDF00x       Tx   d 8 00 00 00 00 00 00 00 00  Length = 580000 BitCount = 148 ID = 419356416x
   1.852216 1  CF00400x        Tx   d 8 4E 8F 8F B0 1D 27 00 90  Length = 544000 BitCount = 139 ID = 217056256x
   1.852792 1  18FF2100x       Tx   d 8 E3 00 FF 30 00 00 00 00  Length = 564000 BitCount = 144 ID = 419373312x
   1.861052 1  CF00400x        Tx   d 8 4E 8F 8F B0 1D 27 00 90  Length = 544000 BitCount = 139 ID = 217056256x
   1.871067 1  CF00400x        Tx   d 8 4E 8F 8F B0 1D 27 00 90  Length = 543756 BitCount = 139 ID = 217056256x
   1.881043 1  CF00400x        Tx   d 8 4E 8F 8F B0 1D 27 00 90  Length = 544015 BitCount = 139 ID = 217056256x
   1.891039 1  CF00400x        Tx   d 8 4E 8F 8F B0 1D 27 00 90  Length = 543771 BitCount = 139 ID = 217056256x
   1.901055 1  18FF2100x       Tx   d 8 E3 00 FF 30 00 00 00 00  Length = 564015 BitCount = 144 ID = 419373312x
   1.901627 1  CF00300x        Tx   d 8 FF FF 1B FF FF FF AB FE  Length = 560015 BitCount = 143 ID = 217056000x
   1.902183 1  CF00400x        Tx   d 8 4E 8F 8F B0 1D 27 00 90  Length = 544015 BitCount = 139 ID = 217056256x
   1.902775 1  18FEDF00x       Tx   d 8 00 00 00 00 00 00 00 00  Length = 580015 BitCount = 148 ID = 419356416x
   1.911031 1  CF00400x        Tx   d 8 4E 8F 8F B0 1D 27 00 90  Length = 543771 BitCount = 139 ID = 217056256x
   1.921055 1  CF00400x        Tx   d 8 4E 8F 8F B0 1D 27 00 90  Length = 544000 BitCount = 139 ID = 217056256x
   1.931043 1  CF00400x        Tx   d 8 4E 8F 8F B0 1D 27 00 90  Length = 544000 BitCount = 139 ID = 217056256x
   1.941002 1  CF00400x        Tx   d 8 4E 8F 8F B0 1D 27 00 90  Length = 543756 BitCount = 139 ID = 217056256x
   1.951062 1  18FEDF00x       Tx   d 8 00 00 00 00 00 00 00 00  Length = 580000 BitCount = 148 ID = 419356416x
   1.951638 1  18FF2100x       Tx   d 8 E3 00 FF 30 00 00 00 00  Length = 564000 BitCount = 144 ID = 419373312x
   1.952194 1  CF00400x        Tx   d 8 4E 8F 8F B0 1D 27 00 90  Length = 544000 BitCount = 139 ID = 217056256x
   1.952766 1  CF00300x        Tx   d 8 FF FF 1B FF FF FF AB FE  Length = 560000 BitCount = 143 ID = 217056000x
   1.961002 1  CF00400x        Tx   d 8 4E 8F 8F B0 1D 27 00 90  Length = 543756 BitCount = 139 ID = 217056256x
   1.971003 1  CF00400x        Tx   d 8 4E 8F 8F B0 1D 27 00 90  Length = 544247 BitCount = 139 ID = 217056256x
   1.981010 1  CF00400x        Tx   d 8 4E 8F 8F B0 1D 27 00 90  Length = 544016 BitCount = 139 ID = 217056256x
   1.991046 1  CF00400x        Tx   d 8 4E 8F 8F B0 1D 27 00 90  Length = 543772 BitCount = 139 ID = 217056256x
   2.001198 1  CF00300x        Tx   d 8 FF FF 1B FF FF FF AB FE  Length = 560016 BitCount = 143 ID = 217056000x
   2.001778 1  18FF2200x       Tx   d 8 00 00 00 00 00 FF 30 9F  Length = 568016 BitCount = 145 ID = 419373568x
   2.002362 1  18FEEE00x       Tx   d 8 7D 67 FF FF FF FF FF FF  Length = 572016 BitCount = 146 ID = 419360256x
   2.002954 1  18FEDF00x       Tx   d 8 00 00 00 00 00 00 00 00  Length = 580016 BitCount = 148 ID = 419356416x
   2.003514 1  18FEF600x       Tx   d 8 FF 32 AA 32 FF 5F 2E FF  Length = 548016 BitCount = 140 ID = 419362304x
   2.004070 1  CF00400x        Tx   d 8 4E 8F 8F B0 1D 27 00 90  Length = 544016 BitCount = 139 ID = 217056256x
   2.004666 1  18FF2500x       Tx   d 8 0F FF FF 00 00 00 00 00  Length = 584016 BitCount = 149 ID = 419374336x
   2.005258 1  18FEF700x       Tx   d 8 00 00 00 00 00 00 00 00  Length = 580016 BitCount = 148 ID = 419362560x
   2.005850 1  18FF2400x       Tx   d 8 00 00 00 00 00 00 00 00  Length = 579772 BitCount = 148 ID = 419374080x
   2.006426 1  18FF2100x       Tx   d 8 E3 00 FF 30 00 00 00 00  Length = 564016 BitCount = 144 ID = 419373312x
   2.009295 1  Statistic: D 0 R 0 XD 323 XR 0 E 0 O 0 B 18.44%
   2.011026 1  CF00400x        Tx   d 8 4E 8F 8F B0 1D 27 00 90  Length = 544000 BitCount = 139 ID = 217056256x
   2.021010 1  CF00400x        Tx   d 8 4E 8F 8F B0 1D 27 00 90  Length = 543756 BitCount = 139 ID = 217056256x
   2.031018 1  CF00400x        Tx   d 8 4E 8F 8F B0 1D 27 00 90  Length = 544000 BitCount = 139 ID = 217056256x
   2.041022 1  CF00400x        Tx   d 8 4E 8F 8F B0 1D 27 00 90  Length = 543756 BitCount = 139 ID = 217056256x
   2.051062 1  CF00300x        Tx   d 8 FF FF 1B FF FF FF AB FE  Length = 560000 BitCount = 143 ID = 217056000x
   2.051654 1  18FEDF00x       Tx   d 8 00 00 00 00 00 00 00 00  Length = 580000 BitCount = 148 ID = 419356416x
   2.052210 1  CF00400x        Tx   d 8 4E 8F 8F B0 1D 27 00 90  Length = 544000 BitCount = 139 ID = 217056256x
   2.052786 1  18FF2100x       Tx   d 8 E3 00 FF 30 00 00 00 00  Length = 564000 BitCount = 144 ID = 419373312x
   2.061029 1  CF00400x        Tx   d 8 4E 8F 8F B0 1D 27 00 90  Length = 544000 BitCount = 139 ID = 217056256x
   2.071001 1  CF00400x        Tx   d 8 4E 8F 8F B0 1D 27 00 90  Length = 544000 BitCount = 139 ID = 217056256x
   2.081001 1  CF00400x        Tx   d 8 4E 8F 8F B0 1D 27 00 90  Length = 544000 BitCount = 139 ID = 217056256x
   2.090993 1  CF00400x        Tx   d 8 4E 8F 8F B0 1D 27 00 90  Length = 543756 BitCount = 139 ID = 217056256x
   2.101017 1  18FF2100x       Tx   d 8 E3 00 FF 30 00 00 00 00  Length = 564000 BitCount = 144 ID = 419373312x
   2.101589 1  CF00300x        Tx   d 8 FF FF 1B FF FF FF AB FE  Length = 560000 BitCount = 143 ID = 217056000x
   2.102145 1  CF00400x        Tx   d 8 4E 8F 8F B0 1D 27 00 90  Length = 544000 BitCount = 139 ID = 217056256x
   2.102737 1  18FEDF00x       Tx   d 8 00 00 00 00 00 00 00 00  Length = 580000 BitCount = 148 ID = 419356416x
   2.111001 1  CF00400x        Tx   d 8 4E 8F 8F B0 1D 27 00 90  Length = 544000 BitCount = 139 ID = 217056256x
   2.121001 1  CF00400x        Tx   d 8 4E 8F 8F B0 1D 27 00 90  Length = 544000 BitCount = 139 ID = 217056256x
   2.130968 1  CF00400x        Tx   d 8 4E 8F 8F B0 1D 27 00 90  Length = 544016 BitCount = 139 ID = 217056256x
   2.140972 1  CF00400x        Tx   d 8 4E 8F 8F B0 1D 27 00 90  Length = 543772 BitCount = 139 ID = 217056256x
   2.151020 1  18FEDF00x       Tx   d 8 00 00 00 00 00 00 00 00  Length = 580016 BitCount = 148 ID = 419356416x
   2.151596 1  18FF2100x       Tx   d 8 E3 00 FF 30 00 00 00 00  Length = 564016 BitCount = 144 ID = 419373312x
   2.152152 1  CF00400x        Tx   d 8 4E 8F 8F B0 1D 27 00 90  Length = 544016 BitCount = 139 ID = 217056256x
   2.152724 1  CF00300x        Tx   d 8 FF FF 1B FF FF FF AB FE  Length = 560016 BitCount = 143 ID = 217056000x
   2.160984 1  CF00400x        Tx   d 8 4E 8F 8F B0 1D 27 00 90  Length = 544016 BitCount = 139 ID = 217056256x
   2.170948 1  CF00400x        Tx   d 8 4E 8F 8F B0 1D 27 00 90  Length = 544016 BitCount = 139 ID = 217056256x
   2.180976 1  CF00400x        Tx   d 8 4E 8F 8F B0 1D 27 00 90  Length = 544000 BitCount = 139 ID = 217056256x
   2.190955 1  CF00400x        Tx   d 8 4E 8F 8F B0 1D 27 00 90  Length = 543756 BitCount = 139 ID = 217056256x
   2.200971 1  CF00300x        Tx   d 8 FF FF 1B FF FF FF AB FE  Length = 560000 BitCount = 143 ID = 217056000x
   2.201563 1  18FEDF00x       Tx   d 8 00 00 00 00 00 00 00 00  Length = 580000 BitCount = 148 ID = 419356416x
   2.202119 1  CF00400x        Tx   d 8 4E 8F 8F B0 1D 27 00 90  Length = 544000 BitCount = 139 ID = 217056256x
   2.202695 1  18FF2100x       Tx   d 8 E3 00 FF 30 00 00 00 00  Length = 564000 BitCount = 144 ID = 419373312x
   2.210967 1  CF00400x        Tx   d 8 4E 8F 8F B0 1D 27 00 90  Length = 544016 BitCount = 139 ID = 217056256x
   2.220951 1  CF00400x        Tx   d 8 4E 8F 8F B0 1D 27 00 90  Length = 544016 BitCount = 139 ID = 217056256x
   2.230967 1  CF00400x        Tx   d 8 4E 8F 8F B0 1D 27 00 90  Length = 544000 BitCount = 139 ID = 217056256x
   2.240971 1  CF00400x        Tx   d 8 4E 8F 8F B0 1D 27 00 90  Length = 543756 BitCount = 139 ID = 217056256x
   2.250951 1  18FF2100x       Tx   d 8 E3 00 FF 30 00 00 00 00  Length = 564000 BitCount = 144 ID = 419373312x
   2.251523 1  CF00300x        Tx   d 8 FF FF 1B FF FF FF AB FE  Length = 560000 BitCount = 143 ID = 217056000x
   2.252079 1  CF00400x        Tx   d 8 4E 8F 8F B0 1D 27 00 90  Length = 544000 BitCount = 139 ID = 217056256x
   2.252671 1  18FEDF00x       Tx   d 8 00 00 00 00 00 00 00 00  Length = 580000 BitCount = 148 ID = 419356416x
   2.260931 1  CF00400x        Tx   d 8 4E 8F 8F B0 1D 27 00 90  Length = 544000 BitCount = 139 ID = 217056256x
   2.270926 1  CF00400x        Tx   d 8 4E 8F 8F B0 1D 27 00 90  Length = 543756 BitCount = 139 ID = 217056256x
   2.280930 1  CF00400x        Tx   d 8 4E 8F 8F B0 1D 27 00 90  Length = 544000 BitCount = 139 ID = 217056256x
   2.291134 1  CF00400x        Tx   d 8 4E 8F 8F B0 1D 27 00 90  Length = 543756 BitCount = 139 ID = 217056256x
   2.301162 1  18FEDF00x       Tx   d 8 00 00 00 00 00 00 00 00  Length = 580000 BitCount = 148 ID = 419356416x
   2.301738 1  18FF2100x       Tx   d 8 E3 00 FF 30 00 00 00 00  Length = 564000 BitCount = 144 ID = 419373312x
   2.302294 1  CF00400x        Tx   d 8 4E 8F 8F B0 1D 27 00 90  Length = 544000 BitCount = 139 ID = 217056256x
   2.302866 1  CF00300x        Tx   d 8 FF FF 1B FF FF FF AB FE  Length = 560000 BitCount = 143 ID = 217056000x
   2.311130 1  CF00400x        Tx   d 8 4E 8F 8F B0 1D 27 00 90  Length = 543756 BitCount = 139 ID = 217056256x
   2.321102 1  CF00400x        Tx   d 8 4E 8F 8F B0 1D 27 00 90  Length = 544000 BitCount = 139 ID = 217056256x
   2.331110 1  CF00400x        Tx   d 8 4E 8F 8F B0 1D 27 00 90  Length = 544000 BitCount = 139 ID = 217056256x
   2.341097 1  CF00400x        Tx   d 8 4E 8F 8F B0 1D 27 00 90  Length = 543756 BitCount = 139 ID = 217056256x
   2.351125 1  CF00300x        Tx   d 8 FF FF 1B FF FF FF AB FE  Length = 560000 BitCount = 143 ID = 217056000x
   2.351717 1  18FEDF00x       Tx   d 8 00 00 00 00 00 00 00 00  Length = 579893 BitCount = 148 ID = 419356416x
   2.352273 1  CF00400x        Tx   d 8 4E 8F 8F B0 1D 27 00 90  Length = 544000 BitCount = 139 ID = 217056256x
   2.352849 1  18FF2100x       Tx   d 8 E3 00 FF 30 00 00 00 00  Length = 564000 BitCount = 144 ID = 419373312x
   2.361109 1  CF00400x        Tx   d 8 4E 8F 8F B0 1D 27 00 90  Length = 544000 BitCount = 139 ID = 217056256x
   2.371109 1  CF00400x        Tx   d 8 4E 8F 8F B0 1D 27 00 90  Length = 543756 BitCount = 139 ID = 217056256x
   2.381081 1  CF00400x        Tx   d 8 4E 8F 8F B0 1D 27 00 90  Length = 544015 BitCount = 139 ID = 217056256x
   2.391077 1  CF00400x        Tx   d 8 4E 8F 8F B0 1D 27 00 90  Length = 543771 BitCount = 139 ID = 217056256x
   2.401105 1  18FF2100x       Tx   d 8 E3 00 FF 30 00 00 00 00  Length = 564016 BitCount = 144 ID = 419373312x
   2.401677 1  CF00300x        Tx   d 8 FF FF 1B FF FF FF AB FE  Length = 560016 BitCount = 143 ID = 217056000x
   2.402233 1  CF00400x        Tx   d 8 4E 8F 8F B0 1D 27 00 90  Length = 544016 BitCount = 139 ID = 217056256x
   2.402825 1  18FEDF00x       Tx   d 8 00 00 00 00 00 00 00 00  Length = 580016 BitCount = 148 ID = 419356416x
   2.411077 1  CF00400x        Tx   d 8 4E 8F 8F B0 1D 27 00 90  Length = 544016 BitCount = 139 ID = 217056256x
   2.421077 1  CF00400x        Tx   d 8 4E 8F 8F B0 1D 27 00 90  Length = 543772 BitCount = 139 ID = 217056256x
   2.431065 1  CF00400x        Tx   d 8 4E 8F 8F B0 1D 27 00 90  Length = 544000 BitCount = 139 ID = 217056256x
   2.441044 1  CF00400x        Tx   d 8 4E 8F 8F B0 1D 27 00 90  Length = 543756 BitCount = 139 ID = 217056256x
   2.451088 1  18FEDF00x       Tx   d 8 00 00 00 00 00 00 00 00  Length = 580000 BitCount = 148 ID = 419356416x
   2.451664 1  18FF2100x       Tx   d 8 E3 00 FF 30 00 00 00 00  Length = 564000 BitCount = 144 ID = 419373312x
   2.452220 1  CF00400x        Tx   d 8 4E 8F 8F B0 1D 27 00 90  Length = 544000 BitCount = 139 ID = 217056256x
   2.452792 1  CF00300x        Tx   d 8 FF FF 1B FF FF FF AB FE  Length = 560000 BitCount = 143 ID = 217056000x
   2.461052 1  CF00400x        Tx   d 8 4E 8F 8F B0 1D 27 00 90  Length = 544000 BitCount = 139 ID = 217056256x
   2.471048 1  CF00400x        Tx   d 8 4E 8F 8F B0 1D 27 00 90  Length = 543756 BitCount = 139 ID = 217056256x
   2.481032 1  CF00400x        Tx   d 8 4E 8F 8F B0 1D 27 00 90  Length = 544015 BitCount = 139 ID = 217056256x
   2.491052 1  CF00400x        Tx   d 8 4E 8F 8F B0 1D 27 00 90  Length = 543771 BitCount = 139 ID = 217056256x
   2.501072 1  CF00300x        Tx   d 8 FF FF 1B FF FF FF AB FE  Length = 559772 BitCount = 143 ID = 217056000x
   2.501668 1  18FF2500x       Tx   d 8 0F FF FF 00 00 00 00 00  Length = 584016 BitCount = 149 ID = 419374336x
   2.502260 1  18FEDF00x       Tx   d 8 00 00 00 00 00 00 00 00  Length = 580016 BitCount = 148 ID = 419356416x
   2.502840 1  18FF2200x       Tx   d 8 00 00 00 00 00 FF 30 9F  Length = 568016 BitCount = 145 ID = 419373568x
   2.503396 1  CF00400x        Tx   d 8 4E 8F 8F B0 1D 27 00 90  Length = 544016 BitCount = 139 ID = 217056256x
   2.503956 1  18FEF600x       Tx   d 8 FF 32 AA 32 FF 5F 2E FF  Length = 548016 BitCount = 140 ID = 419362304x
   2.504532 1  18FF2100x       Tx   d 8 E3 00 FF 30 00 00 00 00  Length = 564016 BitCount = 144 ID = 419373312x
   2.511044 1  CF00400x        Tx   d 8 4E 8F 8F B0 1D 27 00 90  Length = 544016 BitCount = 139 ID = 217056256x
   2.521043 1  CF00400x        Tx   d 8 4E 8F 8F B0 1D 27 00 90  Length = 543772 BitCount = 139 ID = 217056256x
   2.531031 1  CF00400x        Tx   d 8 4E 8F 8F B0 1D 27 00 90  Length = 544000 BitCount = 139 ID = 217056256x
   2.541027 1  CF00400x        Tx   d 8 4E 8F 8F B0 1D 27 00 90  Length = 543756 BitCount = 139 ID = 217056256x
   2.551047 1  CF00300x        Tx   d 8 FF FF 1B FF FF FF AB FE  Length = 560000 BitCount = 143 ID = 217056000x
   2.551603 1  CF00400x        Tx   d 8 4E 8F 8F B0 1D 27 00 90  Length = 544000 BitCount = 139 ID = 217056256x
   2.552195 1  18FEDF00x       Tx   d 8 00 00 00 00 00 00 00 00  Length = 580000 BitCount = 148 ID = 419356416x
   2.552771 1  18FF2100x       Tx   d 8 E3 00 FF 30 00 00 00 00  Length = 564000 BitCount = 144 ID = 419373312x
   2.560967 1  CF00400x        Tx   d 8 4E 8F 8F B0 1D 27 00 90  Length = 543756 BitCount = 139 ID = 217056256x
   2.571003 1  CF00400x        Tx   d 8 4E 8F 8F B0 1D 27 00 90  Length = 544000 BitCount = 139 ID = 217056256x
   2.581003 1  CF00400x        Tx   d 8 4E 8F 8F B0 1D 27 00 90  Length = 544000 BitCount = 139 ID = 217056256x
   2.591034 1  CF00400x        Tx   d 8 4E 8F 8F B0 1D 27 00 90  Length = 543756 BitCount = 139 ID = 217056256x
   2.601030 1  18FF2100x       Tx   d 8 E3 00 FF 30 00 00 00 00  Length = 564000 BitCount = 144 ID = 419373312x
   2.601586 1  CF00400x        Tx   d 8 4E 8F 8F B0 1D 27 00 90  Length = 544000 BitCount = 139 ID = 217056256x
   2.602158 1  CF00300x        Tx   d 8 FF FF 1B FF FF FF AB FE  Length = 560000 BitCount = 143 ID = 217056000x
   2.602750 1  18FEDF00x       Tx   d 8 00 00 00 00 00 00 00 00  Length = 580000 BitCount = 148 ID = 419356416x
   2.611010 1  CF00400x        Tx   d 8 4E 8F 8F B0 1D 27 00 90  Length = 543756 BitCount = 139 ID = 217056256x
   2.621002 1  CF00400x        Tx   d 8 4E 8F 8F B0 1D 27 00 90  Length = 544000 BitCount = 139 ID = 217056256x
   2.630970 1  CF00400x        Tx   d 8 4E 8F 8F B0 1D 27 00 90  Length = 544016 BitCount = 139 ID = 217056256x
   2.640974 1  CF00400x        Tx   d 8 4E 8F 8F B0 1D 27 00 90  Length = 544016 BitCount = 139 ID = 217056256x
   2.651026 1  18FEDF00x       Tx   d 8 00 00 00 00 00 00 00 00  Length = 580016 BitCount = 148 ID = 419356416x
   2.651582 1  CF00400x        Tx   d 8 4E 8F 8F B0 1D 27 00 90  Length = 544016 BitCount = 139 ID = 217056256x
